Time[s], Channel 0,Interval,Over Limit
0,1,,
1.239855,0,,
6.627015,1,,
6.62705,0,,
6.726685,1,99.67,
6.72672,0,,
6.82636,1,99.675,
6.826395,0,,
6.92603,1,99.67,
6.926065,0,,
7.025705,1,99.675,
7.02574,0,,
7.125395,1,99.69,
7.125435,0,,
7.22506,1,99.665,
7.225095,0,,
7.324725,1,99.665,
7.324765,0,,
7.424405,1,99.68,
7.42444,0,,
7.524075,1,99.67,
7.52411,0,,
7.623775,1,99.7,
7.62381,0,,
7.723435,1,99.66,
7.72347,0,,
7.82311,1,99.675,
7.823145,0,,
7.922775,1,99.665,
7.92281,0,,
8.022435,1,99.66,
8.022475,0,,
8.1221,1,99.665,
8.122135,0,,
8.221775,1,99.675,
8.22181,0,,
8.321455,1,99.68,
8.321495,0,,
8.42112,1,99.665,
8.421155,0,,
8.520805,1,99.685,
8.52084,0,,
8.62048,1,99.675,
8.620515,0,,
8.72016,1,99.68,
8.720195,0,,
8.819815,1,99.655,
8.81985,0,,
8.919475,1,99.66,
8.91951,0,,
9.01915,1,99.675,
9.019185,0,,
9.118835,1,99.685,
9.11887,0,,
9.2185,1,99.665,
9.218535,0,,
9.318165,1,99.665,
9.3182,0,,
9.41785,1,99.685,
9.417885,0,,
9.51753,1,99.68,
9.517565,0,,
9.61722,1,99.69,
9.61726,0,,
9.7169,1,99.68,
9.716935,0,,
9.816565,1,99.665,
9.8166,0,,
9.91623,1,99.665,
9.91627,0,,
10.015895,1,99.665,
10.01593,0,,
10.115575,1,99.68,
10.11561,0,,
10.21526,1,99.685,
10.215295,0,,
10.31486,1,99.6,
10.314895,0,,
10.414545,1,99.685,
10.414585,0,,
10.514225,1,99.68,
10.51426,0,,
10.613915,1,99.69,
10.61395,0,,
10.713575,1,99.66,
10.713615,0,,
10.813235,1,99.66,
10.81327,0,,
10.912905,1,99.67,
10.91294,0,,
11.01258,1,99.675,
11.012615,0,,
11.11224,1,99.66,
11.11228,0,,
11.211905,1,99.665,
11.211945,0,,
11.31159,1,99.685,
11.311625,0,,
11.411275,1,99.685,
11.41131,0,,
11.51096,1,99.685,
11.511,0,,
11.610635,1,99.675,
11.61067,0,,
11.710295,1,99.66,
11.71033,0,,
11.809965,1,99.67,
11.81,0,,
11.90963,1,99.665,
11.909665,0,,
12.00931,1,99.68,
12.009345,0,,
12.10899,1,99.68,
12.109025,0,,
12.20858,1,99.59,
12.208615,0,,
12.30827,1,99.69,
12.308305,0,,
12.407945,1,99.675,
12.40798,0,,
12.507635,1,99.69,
12.507675,0,,
12.607305,1,99.67,
12.607345,0,,
12.706975,1,99.67,
12.707015,0,,
12.806655,1,99.68,
12.80669,0,,
12.906335,1,99.68,
12.906375,0,,
13.00601,1,99.675,
13.006045,0,,
13.10568,1,99.67,
13.105715,0,,
13.20537,1,99.69,
13.205405,0,,
13.305065,1,99.695,
13.3051,0,,
13.404765,1,99.7,
13.404805,0,,
13.50446,1,99.695,
13.504495,0,,
13.60413,1,99.67,
13.60417,0,,
13.70381,1,99.68,
13.703845,0,,
13.80348,1,99.67,
13.803515,0,,
13.903165,1,99.685,
13.9032,0,,
14.002855,1,99.69,
14.00289,0,,
14.102455,1,99.6,
14.10249,0,,
14.20215,1,99.695,
14.202185,0,,
14.301835,1,99.685,
14.301875,0,,
14.401505,1,99.67,
14.401545,0,,
14.501205,1,99.7,
14.50124,0,,
14.60088,1,99.675,
14.600915,0,,
14.70057,1,99.69,
14.70061,0,,
14.800265,1,99.695,
14.8003,0,,
14.899935,1,99.67,
14.89997,0,,
14.999615,1,99.68,
14.99965,0,,
15.0993,1,99.685,
15.099335,0,,
15.198995,1,99.695,
15.19903,0,,
15.298655,1,99.66,
15.298695,0,,
15.39834,1,99.685,
15.398375,0,,
15.498015,1,99.675,
15.49805,0,,
15.59768,1,99.665,
15.597715,0,,
15.697345,1,99.665,
15.69738,0,,
15.797025,1,99.68,
15.79706,0,,
15.896715,1,99.69,
15.89675,0,,
15.996305,1,99.59,
15.99634,0,,
16.095995,1,99.69,
16.096035,0,,
16.195685,1,99.69,
16.19572,0,,
16.295375,1,99.69,
16.29541,0,,
16.39504,1,99.665,
16.395075,0,,
16.49471,1,99.67,
16.494745,0,,
16.594385,1,99.675,
16.594425,0,,
16.69407,1,99.685,
16.69411,0,,
16.793755,1,99.685,
16.79379,0,,
16.893425,1,99.67,
16.893465,0,,
16.9931,1,99.675,
16.993135,0,,
17.092805,1,99.705,
17.09284,0,,
17.192475,1,99.67,
17.19251,0,,
17.29217,1,99.695,
17.292205,0,,
17.391845,1,99.675,
17.39188,0,,
17.491535,1,99.69,
17.49157,0,,
17.591205,1,99.67,
17.59124,0,,
17.69087,1,99.665,
17.69091,0,,
17.79056,1,99.69,
17.790595,0,,
17.890245,1,99.685,
17.89028,0,,
17.989905,1,99.66,
17.98994,0,,
18.08958,1,99.675,
18.089615,0,,
18.189235,1,99.655,
18.18927,0,,
18.288895,1,99.66,
18.28893,0,,
18.388565,1,99.67,
18.3886,0,,
18.488225,1,99.66,
18.48826,0,,
18.587885,1,99.66,
18.58792,0,,
18.68755,1,99.665,
18.687585,0,,
18.78722,1,99.67,
18.787255,0,,
18.88688,1,99.66,
18.886915,0,,
18.98654,1,99.66,
18.986575,0,,
19.086205,1,99.665,
19.08624,0,,
19.185865,1,99.66,
19.1859,0,,
19.28553,1,99.665,
19.285565,0,,
19.385225,1,99.695,
19.38526,0,,
19.484895,1,99.67,
19.48493,0,,
19.584565,1,99.67,
19.584605,0,,
19.684265,1,99.7,
19.684305,0,,
19.78396,1,99.695,
19.783995,0,,
19.88363,1,99.67,
19.883665,0,,
19.983325,1,99.695,
19.98336,0,,
20.08299,1,99.665,
20.083025,0,,
20.182665,1,99.675,
20.1827,0,,
20.28235,1,99.685,
20.28239,0,,
20.382025,1,99.675,
20.38206,0,,
20.481685,1,99.66,
20.48172,0,,
20.58136,1,99.675,
20.581395,0,,
20.681035,1,99.675,
20.68107,0,,
20.780705,1,99.67,
20.78074,0,,
20.880365,1,99.66,
20.8804,0,,
20.98003,1,99.665,
20.980065,0,,
21.079695,1,99.665,
21.07973,0,,
21.17937,1,99.675,
21.179405,0,,
21.27906,1,99.69,
21.279095,0,,
21.378735,1,99.675,
21.37877,0,,
21.478405,1,99.67,
21.478445,0,,
21.5781,1,99.695,
21.578135,0,,
21.67778,1,99.68,
21.677815,0,,
21.777465,1,99.685,
21.777505,0,,
21.87716,1,99.695,
21.877195,0,,
21.97682,1,99.66,
21.97686,0,,
22.076495,1,99.675,
22.07653,0,,
22.17617,1,99.675,
22.176205,0,,
22.27583,1,99.66,
22.275865,0,,
22.37552,1,99.69,
22.375555,0,,
22.4752,1,99.68,
22.475235,0,,
22.574875,1,99.675,
22.57491,0,,
22.67453,1,99.655,
22.674565,0,,
22.774185,1,99.655,
22.77422,0,,
22.873845,1,99.66,
22.87388,0,,
22.97353,1,99.685,
22.973565,0,,
23.0732,1,99.67,
23.073235,0,,
23.172885,1,99.685,
23.17292,0,,
23.272545,1,99.66,
23.27258,0,,
23.372195,1,99.65,
23.372235,0,,
23.47188,1,99.685,
23.47192,0,,
23.571565,1,99.685,
23.5716,0,,
23.671245,1,99.68,
23.67128,0,,
23.77093,1,99.685,
23.770965,0,,
23.870595,1,99.665,
23.870635,0,,
23.970265,1,99.67,
23.970305,0,,
24.06995,1,99.685,
24.069985,0,,
24.16961,1,99.66,
24.169645,0,,
24.2693,1,99.69,
24.269335,0,,
24.368985,1,99.685,
24.36902,0,,
24.468655,1,99.67,
24.468695,0,,
24.56832,1,99.665,
24.568355,0,,
24.66798,1,99.66,
24.66802,0,,
24.767645,1,99.665,
24.76768,0,,
24.86733,1,99.685,
24.867365,0,,
24.966955,1,99.625,
24.96699,0,,
25.06664,1,99.685,
25.066675,0,,
25.166305,1,99.665,
25.16634,0,,
25.265965,1,99.66,
25.266,0,,
25.36565,1,99.685,
25.365685,0,,
25.4653,1,99.65,
25.46534,0,,
25.564985,1,99.685,
25.56502,0,,
25.66466,1,99.675,
25.664695,0,,
25.76432,1,99.66,
25.764355,0,,
25.86398,1,99.66,
25.864015,0,,
25.963655,1,99.675,
25.96369,0,,
26.06332,1,99.665,
26.063355,0,,
26.163015,1,99.695,
26.16305,0,,
26.262685,1,99.67,
26.262725,0,,
26.36236,1,99.675,
26.362395,0,,
26.462025,1,99.665,
26.46206,0,,
26.56169,1,99.665,
26.56173,0,,
26.661365,1,99.675,
26.6614,0,,
26.76103,1,99.665,
26.761065,0,,
26.8606,1,99.57,
26.860635,0,,
26.960265,1,99.665,
26.9603,0,,
27.059935,1,99.67,
27.05997,0,,
27.1596,1,99.665,
27.159635,0,,
27.25928,1,99.68,
27.259315,0,,
27.358935,1,99.655,
27.35897,0,,
27.458605,1,99.67,
27.458645,0,,
27.558285,1,99.68,
27.55832,0,,
27.657945,1,99.66,
27.657985,0,,
27.757615,1,99.67,
27.75765,0,,
27.857295,1,99.68,
27.857335,0,,
27.95695,1,99.655,
27.956985,0,,
28.05664,1,99.69,
28.056675,0,,
28.15631,1,99.67,
28.156345,0,,
28.25598,1,99.67,
28.256015,0,,
28.355635,1,99.655,
28.355675,0,,
28.4553,1,99.665,
28.45534,0,,
28.554955,1,99.655,
28.554995,0,,
28.65464,1,99.685,
28.654675,0,,
28.75423,1,99.59,
28.754265,0,,
28.853915,1,99.685,
28.85395,0,,
28.95358,1,99.665,
28.953615,0,,
29.053245,1,99.665,
29.05328,0,,
29.15294,1,99.695,
29.15298,0,,
29.25261,1,99.67,
29.252645,0,,
29.35229,1,99.68,
29.352325,0,,
29.45198,1,99.69,
29.45202,0,,
29.55165,1,99.67,
29.551685,0,,
29.65132,1,99.67,
29.651355,0,,
29.751005,1,99.685,
29.75104,0,,
29.85066,1,99.655,
29.850695,0,,
29.95034,1,99.68,
29.95038,0,,
30.050015,1,99.675,
30.05005,0,,
30.149685,1,99.67,
30.14972,0,,
30.249345,1,99.66,
30.24938,0,,
30.349005,1,99.66,
30.349045,0,,
30.44867,1,99.665,
30.448705,0,,
30.54833,1,99.66,
30.548365,0,,
30.64795,1,99.62,
30.647985,0,,
30.74761,1,99.66,
30.747645,0,,
30.847275,1,99.665,
30.84731,0,,
30.94694,1,99.665,
30.94698,0,,
31.046635,1,99.695,
31.04667,0,,
31.14633,1,99.695,
31.146365,0,,
31.246015,1,99.685,
31.24605,0,,
31.34568,1,99.665,
31.345715,0,,
31.44537,1,99.69,
31.445405,0,,
31.545035,1,99.665,
31.54507,0,,
31.6447,1,99.665,
31.644735,0,,
31.74438,1,99.68,
31.744415,0,,
31.844065,1,99.685,
31.844105,0,,
31.943725,1,99.66,
31.94376,0,,
32.043395,1,99.67,
32.04343,0,,
32.14308,1,99.685,
32.143115,0,,
32.242765,1,99.685,
32.2428,0,,
32.342455,1,99.69,
32.342495,0,,
32.44214,1,99.685,
32.442175,0,,
32.54179,1,99.65,
32.54183,0,,
32.64146,1,99.67,
32.641495,0,,
32.741145,1,99.685,
32.74118,0,,
32.8408,1,99.655,
32.84084,0,,
32.94046,1,99.66,
32.9405,0,,
33.040145,1,99.685,
33.04018,0,,
33.13981,1,99.665,
33.13985,0,,
33.23948,1,99.67,
33.239515,0,,
33.339165,1,99.685,
33.339205,0,,
33.438825,1,99.66,
33.43886,0,,
33.53849,1,99.665,
33.538525,0,,
33.63816,1,99.67,
33.638195,0,,
33.737845,1,99.685,
33.73788,0,,
33.8375,1,99.655,
33.837535,0,,
33.937155,1,99.655,
33.93719,0,,
34.036825,1,99.67,
34.03686,0,,
34.13651,1,99.685,
34.136545,0,,
34.23619,1,99.68,
34.23623,0,,
34.335875,1,99.685,
34.33591,0,,
34.43553,1,99.655,
34.435565,0,,
34.53521,1,99.68,
34.53525,0,,
34.6349,1,99.69,
34.63494,0,,
34.734575,1,99.675,
34.73461,0,,
34.834255,1,99.68,
34.83429,0,,
34.93394,1,99.685,
34.93398,0,,
35.03361,1,99.67,
35.033645,0,,
35.13328,1,99.67,
35.133315,0,,
35.232965,1,99.685,
35.233,0,,
35.33262,1,99.655,
35.33266,0,,
35.432275,1,99.655,
35.432315,0,,
35.531955,1,99.68,
35.53199,0,,
35.63164,1,99.685,
35.631675,0,,
35.731295,1,99.655,
35.73133,0,,
35.83096,1,99.665,
35.830995,0,,
35.930635,1,99.675,
35.93067,0,,
36.03033,1,99.695,
36.030365,0,,
36.13001,1,99.68,
36.130045,0,,
36.229695,1,99.685,
36.22973,0,,
36.32939,1,99.695,
36.329425,0,,
36.42908,1,99.69,
36.429115,0,,
36.52876,1,99.68,
36.528795,0,,
36.62842,1,99.66,
36.628455,0,,
36.72808,1,99.66,
36.728115,0,,
36.827735,1,99.655,
36.82777,0,,
36.9274,1,99.665,
36.927435,0,,
37.02706,1,99.66,
37.027095,0,,
37.126715,1,99.655,
37.126755,0,,
37.226405,1,99.69,
37.22644,0,,
37.326075,1,99.67,
37.32611,0,,
37.425755,1,99.68,
37.425795,0,,
37.52544,1,99.685,
37.525475,0,,
37.625095,1,99.655,
37.625135,0,,
37.72476,1,99.665,
37.724795,0,,
37.82443,1,99.67,
37.82447,0,,
37.924095,1,99.665,
37.92413,0,,
38.023775,1,99.68,
38.02381,0,,
38.12346,1,99.685,
38.1235,0,,
38.223145,1,99.685,
38.223185,0,,
38.32283,1,99.685,
38.322865,0,,
38.422505,1,99.675,
38.42254,0,,
38.52217,1,99.665,
38.522205,0,,
38.62183,1,99.66,
38.621865,0,,
38.721485,1,99.655,
38.72152,0,,
38.82115,1,99.665,
38.821185,0,,
38.920825,1,99.675,
38.92086,0,,
39.02048,1,99.655,
39.020515,0,,
39.12016,1,99.68,
39.120195,0,,
39.219825,1,99.665,
39.21986,0,,
39.3195,1,99.675,
39.319535,0,,
39.41919,1,99.69,
39.419225,0,,
39.51885,1,99.66,
39.518885,0,,
39.61851,1,99.66,
39.618545,0,,
39.71818,1,99.67,
39.718215,0,,
39.817835,1,99.655,
39.81787,0,,
39.91751,1,99.675,
39.917545,0,,
40.017195,1,99.685,
40.017235,0,,
40.11689,1,99.695,
40.116925,0,,
40.21658,1,99.69,
40.216615,0,,
40.31626,1,99.68,
40.316295,0,,
40.41592,1,99.66,
40.415955,0,,
40.515585,1,99.665,
40.51562,0,,
40.615245,1,99.66,
40.615285,0,,
40.714915,1,99.67,
40.71495,0,,
40.81459,1,99.675,
40.814625,0,,
40.914245,1,99.655,
40.914285,0,,
41.01393,1,99.685,
41.01397,0,,
41.1136,1,99.67,
41.113635,0,,
41.213285,1,99.685,
41.21332,0,,
41.312975,1,99.69,
41.31301,0,,
41.41264,1,99.665,
41.412675,0,,
41.51231,1,99.67,
41.512345,0,,
41.61199,1,99.68,
41.61203,0,,
41.711655,1,99.665,
41.71169,0,,
41.811335,1,99.68,
41.81137,0,,
41.91103,1,99.695,
41.911065,0,,
42.010725,1,99.695,
42.01076,0,,
42.110385,1,99.66,
42.110425,0,,
42.21007,1,99.685,
42.210105,0,,
42.30974,1,99.67,
42.309775,0,,
42.409395,1,99.655,
42.40943,0,,
42.509055,1,99.66,
42.50909,0,,
42.608725,1,99.67,
42.60876,0,,
42.70839,1,99.665,
42.708425,0,,
42.80805,1,99.66,
42.808085,0,,
42.907735,1,99.685,
42.90777,0,,
43.007415,1,99.68,
43.00745,0,,
43.10709,1,99.675,
43.10713,0,,
43.206785,1,99.695,
43.20682,0,,
43.30645,1,99.665,
43.306485,0,,
43.406115,1,99.665,
43.40615,0,,
43.50579,1,99.675,
43.505825,0,,
43.605445,1,99.655,
43.605485,0,,
43.705125,1,99.68,
43.70516,0,,
43.80478,1,99.655,
43.80482,0,,
43.904455,1,99.675,
43.904495,0,,
44.004115,1,99.66,
44.00415,0,,
44.10379,1,99.675,
44.103825,0,,
44.203455,1,99.665,
44.203495,0,,
44.303125,1,99.67,
44.30316,0,,
44.40279,1,99.665,
44.40283,0,,
44.50246,1,99.67,
44.502495,0,,
44.60212,1,99.66,
44.60216,0,,
44.70178,1,99.66,
44.701815,0,,
44.801385,1,99.605,
44.80142,0,,
44.90105,1,99.665,
44.901085,0,,
45.000725,1,99.675,
45.00076,0,,
45.100415,1,99.69,
45.10045,0,,
45.200075,1,99.66,
45.20011,0,,
45.299735,1,99.66,
45.29977,0,,
45.39942,1,99.685,
45.39946,0,,
45.49909,1,99.67,
45.499125,0,,
45.598765,1,99.675,
45.5988,0,,
45.698425,1,99.66,
45.69846,0,,
45.798105,1,99.68,
45.79814,0,,
45.897795,1,99.69,
45.89783,0,,
45.997465,1,99.67,
45.997505,0,,
46.09713,1,99.665,
46.097165,0,,
46.196795,1,99.665,
46.196835,0,,
46.29646,1,99.665,
46.296495,0,,
46.396135,1,99.675,
46.39617,0,,
46.49581,1,99.675,
46.495845,0,,
46.59548,1,99.67,
46.595515,0,,
46.695095,1,99.615,
46.695135,0,,
46.794765,1,99.67,
46.7948,0,,
46.89444,1,99.675,
46.894475,0,,
46.9941,1,99.66,
46.994135,0,,
47.09377,1,99.67,
47.093805,0,,
47.193435,1,99.665,
47.193475,0,,
47.293115,1,99.68,
47.29315,0,,
47.39278,1,99.665,
47.392815,0,,
47.49246,1,99.68,
47.492495,0,,
47.59215,1,99.69,
47.592185,0,,
47.69184,1,99.69,
47.691875,0,,
47.791505,1,99.665,
47.79154,0,,
47.891175,1,99.67,
47.89121,0,,
47.99084,1,99.665,
47.99088,0,,
48.090505,1,99.665,
48.09054,0,,
48.19017,1,99.665,
48.190205,0,,
48.289845,1,99.675,
48.28988,0,,
48.389515,1,99.67,
48.38955,0,,
48.489165,1,99.65,
48.4892,0,,
48.588795,1,99.63,
48.58883,0,,
48.688465,1,99.67,
48.688505,0,,
48.788155,1,99.69,
48.78819,0,,
48.887825,1,99.67,
48.887865,0,,
48.987505,1,99.68,
48.98754,0,,
49.087185,1,99.68,
49.08722,0,,
49.18684,1,99.655,
49.18688,0,,
49.28651,1,99.67,
49.28655,0,,
49.386175,1,99.665,
49.38621,0,,
49.485845,1,99.67,
49.48588,0,,
49.5855,1,99.655,
49.58554,0,,
49.685175,1,99.675,
49.68521,0,,
49.784835,1,99.66,
49.78487,0,,
49.88451,1,99.675,
49.88455,0,,
49.984185,1,99.675,
49.984225,0,,
50.08387,1,99.685,
50.083905,0,,
50.183525,1,99.655,
50.18356,0,,
50.283175,1,99.65,
50.28321,0,,
50.382835,1,99.66,
50.38287,0,,
50.482415,1,99.58,
50.482455,0,,
50.58207,1,99.655,
50.58211,0,,
50.68172,1,99.65,
50.681755,0,,
50.78138,1,99.66,
50.781415,0,,
50.881055,1,99.675,
50.881095,0,,
50.980735,1,99.68,
50.980775,0,,
51.0804,1,99.665,
51.080435,0,,
51.180085,1,99.685,
51.18012,0,,
51.279745,1,99.66,
51.27978,0,,
51.37942,1,99.675,
51.379455,0,,
51.479085,1,99.665,
51.479125,0,,
51.57876,1,99.675,
51.578795,0,,
51.67842,1,99.66,
51.678455,0,,
51.778105,1,99.685,
51.77814,0,,
51.87778,1,99.675,
51.877815,0,,
51.977465,1,99.685,
51.9775,0,,
52.077125,1,99.66,
52.077165,0,,
52.176815,1,99.69,
52.17685,0,,
52.27649,1,99.675,
52.276525,0,,
52.37616,1,99.67,
52.376195,0,,
52.475815,1,99.655,
52.47585,0,,
52.575465,1,99.65,
52.5755,0,,
52.67512,1,99.655,
52.67516,0,,
52.774795,1,99.675,
52.774835,0,,
52.874475,1,99.68,
52.87451,0,,
52.97414,1,99.665,
52.974175,0,,
53.073815,1,99.675,
53.07385,0,,
53.173475,1,99.66,
53.17351,0,,
53.273145,1,99.67,
53.273185,0,,
53.372815,1,99.67,
53.37285,0,,
53.47248,1,99.665,
53.47252,0,,
53.57214,1,99.66,
53.57218,0,,
53.67182,1,99.68,
53.671855,0,,
53.77149,1,99.67,
53.771525,0,,
53.87118,1,99.69,
53.871215,0,,
53.97084,1,99.66,
53.970875,0,,
54.070525,1,99.685,
54.070565,0,,
54.1702,1,99.675,
54.17024,0,,
54.269875,1,99.675,
54.26991,0,,
54.369535,1,99.66,
54.369575,0,,
54.469195,1,99.66,
54.46923,0,,
54.56886,1,99.665,
54.568895,0,,
54.668535,1,99.675,
54.66857,0,,
54.76822,1,99.685,
54.768255,0,,
54.86788,1,99.66,
54.867915,0,,
54.96755,1,99.67,
54.967585,0,,
55.06721,1,99.66,
55.067245,0,,
55.166895,1,99.685,
55.16693,0,,
55.266575,1,99.68,
55.26661,0,,
55.366255,1,99.68,
55.366295,0,,
55.465925,1,99.67,
55.46596,0,,
55.56561,1,99.685,
55.565645,0,,
55.665285,1,99.675,
55.66532,0,,
55.764945,1,99.66,
55.76498,0,,
55.864635,1,99.69,
55.864675,0,,
55.964325,1,99.69,
55.964365,0,,
56.064,1,99.675,
56.064035,0,,
56.16368,1,99.68,
56.163715,0,,
56.263345,1,99.665,
56.26338,0,,
56.363005,1,99.66,
56.36304,0,,
56.46266,1,99.655,
56.4627,0,,
56.56234,1,99.68,
56.562375,0,,
56.66203,1,99.69,
56.662065,0,,
56.761685,1,99.655,
56.76172,0,,
56.86136,1,99.675,
56.861395,0,,
56.961015,1,99.655,
56.96105,0,,
57.060685,1,99.67,
57.06072,0,,
57.16034,1,99.655,
57.160375,0,,
57.260015,1,99.675,
57.26005,0,,
57.35967,1,99.655,
57.359705,0,,
57.45935,1,99.68,
57.459385,0,,
57.55903,1,99.68,
57.559065,0,,
57.6587,1,99.67,
57.658735,0,,
57.75837,1,99.67,
57.758405,0,,
57.85804,1,99.67,
57.858075,0,,
57.95773,1,99.69,
57.957765,0,,
58.0574,1,99.67,
58.057435,0,,
58.157065,1,99.665,
58.1571,0,,
58.25674,1,99.675,
58.256775,0,,
58.356425,1,99.685,
58.35646,0,,
58.456085,1,99.66,
58.45612,0,,
58.55575,1,99.665,
58.555785,0,,
58.65542,1,99.67,
58.655455,0,,
58.755075,1,99.655,
58.755115,0,,
58.85474,1,99.665,
58.85478,0,,
58.9544,1,99.66,
58.954435,0,,
59.05407,1,99.67,
59.054105,0,,
59.15373,1,99.66,
59.153765,0,,
59.253405,1,99.675,
59.25344,0,,
59.353085,1,99.68,
59.35312,0,,
59.452755,1,99.67,
59.452795,0,,
59.55242,1,99.665,
59.55246,0,,
59.652085,1,99.665,
59.65212,0,,
59.75175,1,99.665,
59.751785,0,,
59.851405,1,99.655,
59.85144,0,,
59.95109,1,99.685,
59.951125,0,,
60.05076,1,99.67,
60.050795,0,,
60.15044,1,99.68,
60.150475,0,,
60.25013,1,99.69,
60.250165,0,,
60.34979,1,99.66,
60.34983,0,,
60.44945,1,99.66,
60.449485,0,,
60.549115,1,99.665,
60.54915,0,,
60.64878,1,99.665,
60.648815,0,,
60.74845,1,99.67,
60.748485,0,,
60.848105,1,99.655,
60.84814,0,,
60.947775,1,99.67,
60.94781,0,,
61.047435,1,99.66,
61.04747,0,,
61.147095,1,99.66,
61.147135,0,,
61.246775,1,99.68,
61.246815,0,,
61.346375,1,99.6,
61.346415,0,,
61.446065,1,99.69,
61.4461,0,,
61.545735,1,99.67,
61.54577,0,,
61.64541,1,99.675,
61.645445,0,,
61.745105,1,99.695,
61.74514,0,,
61.84476,1,99.655,
61.844795,0,,
61.944425,1,99.665,
61.94446,0,,
62.04411,1,99.685,
62.044145,0,,
62.143775,1,99.665,
62.14381,0,,
62.243435,1,99.66,
62.243475,0,,
62.34311,1,99.675,
62.343145,0,,
62.44279,1,99.68,
62.442825,0,,
62.542465,1,99.675,
62.5425,0,,
62.642155,1,99.69,
62.64219,0,,
62.74182,1,99.665,
62.741855,0,,
62.841515,1,99.695,
62.84155,0,,
62.941185,1,99.67,
62.94122,0,,
63.04087,1,99.685,
63.040905,0,,
63.140555,1,99.685,
63.140595,0,,
63.240125,1,99.57,
63.240165,0,,
63.339795,1,99.67,
63.33983,0,,
63.439455,1,99.66,
63.43949,0,,
63.539125,1,99.67,
63.53916,0,,
63.638785,1,99.66,
63.638825,0,,
63.738455,1,99.67,
63.73849,0,,
63.838135,1,99.68,
63.83817,0,,
63.937815,1,99.68,
63.937855,0,,
64.03747,1,99.655,
64.03751,0,,
64.13712,1,99.65,
64.13716,0,,
64.23679,1,99.67,
64.23683,0,,
64.33648,1,99.69,
64.33652,0,,
64.436155,1,99.675,
64.43619,0,,
64.535815,1,99.66,
64.53585,0,,
64.635485,1,99.67,
64.63552,0,,
64.73515,1,99.665,
64.73519,0,,
64.834825,1,99.675,
64.83486,0,,
64.934515,1,99.69,
64.93455,0,,
65.034175,1,99.66,
65.03421,0,,
65.13379,1,99.615,
65.133825,0,,
65.23347,1,99.68,
65.233505,0,,
65.333165,1,99.695,
65.3332,0,,
65.432825,1,99.66,
65.43286,0,,
65.53249,1,99.665,
65.532525,0,,
65.63216,1,99.67,
65.632195,0,,
65.73185,1,99.69,
65.731885,0,,
65.83155,1,99.7,
65.831585,0,,
65.93122,1,99.67,
65.931255,0,,
66.03089,1,99.67,
66.030925,0,,
66.130575,1,99.685,
66.13061,0,,
66.23027,1,99.695,
66.230305,0,,
66.32996,1,99.69,
66.329995,0,,
66.42963,1,99.67,
66.429665,0,,
66.5293,1,99.67,
66.52934,0,,
66.62897,1,99.67,
66.62901,0,,
66.728645,1,99.675,
66.72868,0,,
66.828315,1,99.67,
66.82835,0,,
66.927985,1,99.67,
66.92802,0,,
67.027605,1,99.62,
67.027645,0,,
67.12731,1,99.705,
67.127345,0,,
67.22698,1,99.67,
67.227015,0,,
67.32668,1,99.7,
67.326715,0,,
67.426375,1,99.695,
67.42641,0,,
67.526055,1,99.68,
67.526095,0,,
67.625725,1,99.67,
67.625765,0,,
67.72541,1,99.685,
67.725445,0,,
67.82507,1,99.66,
67.825105,0,,
67.92473,1,99.66,
67.924765,0,,
68.0244,1,99.67,
68.024435,0,,
